1



                                 *********************************************

                                    NUMERICAL ELECTROMAGNETICS CODE (NEC-2D)

                                 *********************************************




                                     - - - - COMMENTS - - - -


                          No comments specified                                                      
                                                                                                     




                                 - - - STRUCTURE SPECIFICATION - - -

                                     COORDINATES MUST BE INPUT IN
                                     METERS OR BE SCALED TO METERS
                                     BEFORE STRUCTURE INPUT IS ENDED


  WIRE                                                                               NO. OF    FIRST  LAST     TAG
  NO.        X1         Y1         Z1          X2         Y2         Z2      RADIUS   SEG.     SEG.   SEG.     NO.
     1   -0.13600    0.00000    0.12000    -0.03100    0.00000    0.12000    0.00250      2        1     2       1
     2   -0.03100    0.00000    0.12000     0.02100    0.00000    0.12000    0.00250      1        3     3     999
     3    0.02100    0.00000    0.12000     0.13600    0.00000    0.12000    0.00250      2        4     5       1
     4   -0.13300   -0.33000    0.12600    -0.13300   -0.33000    0.96400    0.00250     17        6    22       3
     5    0.13300   -0.33000    0.12600     0.13300   -0.33000    0.96400    0.00250     17       23    39       3
     6   -0.13300   -0.33000    0.12600     0.13300   -0.33000    0.12600    0.00250      6       40    45       3
     7   -0.13300   -0.33000    0.96400     0.00000   -0.33000    0.96400    0.00250      1       46    46       3
     8    0.00000   -0.33000    0.96400     0.13300   -0.33000    0.96400    0.00250      1       47    47       3
     9   -0.13600    0.00000    0.00000    -0.13600    0.00000    0.12000    0.00250      1       48    48       2
    10    0.13600    0.00000    0.00000     0.13600    0.00000    0.12000    0.00250      1       49    49       2
    11   -0.13600    0.00000    0.00000     0.13600    0.00000    0.00000    0.00250      6       50    55       2
    12   -0.13600    0.00000    0.97000     0.00000    0.00000    0.97000    0.00250      1       56    56       2
    13   -0.13600    0.00000    0.12000    -0.13600    0.00000    0.97000    0.00250      1       57    57       2
    14    0.13600    0.00000    0.12000     0.13600    0.00000    0.97000    0.00250      1       58    58       2
    15    0.00000    0.00000    0.97000     0.13600    0.00000    0.97000    0.00250      1       59    59       2
    16    0.00000    0.00000    0.97000     0.00000   -0.33000    0.96400    0.00050      7       60    66       4
      THE STRUCTURE HAS BEEN MOVED, MOVE DATA CARD IS -
        0    0   0.00000   0.00000   0.00000   0.00000   0.00000   8.00000   0.00000

   GROUND PLANE SPECIFIED.

   TOTAL SEGMENTS USED=   66     NO. SEG. IN A SYMMETRIC CELL=   66     SYMMETRY FLAG=  0


         - MULTIPLE WIRE JUNCTIONS -
 JUNCTION    SEGMENTS  (- FOR END 1, + FOR END 2)
     1        -1   48  -57
     2         5   49  -58
     3        46  -47   66
     4        56  -59  -60




                                 - - - - SEGMENTATION DATA - - - -

                                        COORDINATES IN METERS

                         I+ AND I- INDICATE THE SEGMENTS BEFORE AND AFTER I


  SEG.   COORDINATES OF SEG. CENTER     SEG.     ORIENTATION ANGLES    WIRE    CONNECTION DATA   TAG
  NO.       X         Y         Z       LENGTH     ALPHA     BETA      RADIUS    I-   I    I+    NO.
     1  -0.10975   0.00000   8.12000   0.05250    0.00000   0.00000   0.00250    48    1    2      1
     2  -0.05725   0.00000   8.12000   0.05250    0.00000   0.00000   0.00250     1    2    3      1
     3  -0.00500   0.00000   8.12000   0.05200    0.00000   0.00000   0.00250     2    3    4    999
     4   0.04975   0.00000   8.12000   0.05750    0.00000   0.00000   0.00250     3    4    5      1
     5   0.10725   0.00000   8.12000   0.05750    0.00000   0.00000   0.00250     4    5  -49      1
     6  -0.13300  -0.33000   8.15065   0.04929   90.00000   0.00000   0.00250   -40    6    7      3
     7  -0.13300  -0.33000   8.19994   0.04929   90.00000   0.00000   0.00250     6    7    8      3
     8  -0.13300  -0.33000   8.24924   0.04929   90.00000   0.00000   0.00250     7    8    9      3
     9  -0.13300  -0.33000   8.29853   0.04929   90.00000   0.00000   0.00250     8    9   10      3
    10  -0.13300  -0.33000   8.34782   0.04929   90.00000   0.00000   0.00250     9   10   11      3
    11  -0.13300  -0.33000   8.39712   0.04929   90.00000   0.00000   0.00250    10   11   12      3
    12  -0.13300  -0.33000   8.44641   0.04929   90.00000   0.00000   0.00250    11   12   13      3
    13  -0.13300  -0.33000   8.49571   0.04929   90.00000   0.00000   0.00250    12   13   14      3
    14  -0.13300  -0.33000   8.54500   0.04929   90.00000   0.00000   0.00250    13   14   15      3
    15  -0.13300  -0.33000   8.59429   0.04929   90.00000   0.00000   0.00250    14   15   16      3
    16  -0.13300  -0.33000   8.64359   0.04929   90.00000   0.00000   0.00250    15   16   17      3
    17  -0.13300  -0.33000   8.69288   0.04929   90.00000   0.00000   0.00250    16   17   18      3
    18  -0.13300  -0.33000   8.74218   0.04929   90.00000   0.00000   0.00250    17   18   19      3
    19  -0.13300  -0.33000   8.79147   0.04929   90.00000   0.00000   0.00250    18   19   20      3
    20  -0.13300  -0.33000   8.84076   0.04929   90.00000   0.00000   0.00250    19   20   21      3
    21  -0.13300  -0.33000   8.89006   0.04929   90.00000   0.00000   0.00250    20   21   22      3
    22  -0.13300  -0.33000   8.93935   0.04929   90.00000   0.00000   0.00250    21   22   46      3
    23   0.13300  -0.33000   8.15065   0.04929   90.00000   0.00000   0.00250    45   23   24      3
    24   0.13300  -0.33000   8.19994   0.04929   90.00000   0.00000   0.00250    23   24   25      3
    25   0.13300  -0.33000   8.24924   0.04929   90.00000   0.00000   0.00250    24   25   26      3
    26   0.13300  -0.33000   8.29853   0.04929   90.00000   0.00000   0.00250    25   26   27      3
    27   0.13300  -0.33000   8.34782   0.04929   90.00000   0.00000   0.00250    26   27   28      3
    28   0.13300  -0.33000   8.39712   0.04929   90.00000   0.00000   0.00250    27   28   29      3
    29   0.13300  -0.33000   8.44641   0.04929   90.00000   0.00000   0.00250    28   29   30      3
    30   0.13300  -0.33000   8.49571   0.04929   90.00000   0.00000   0.00250    29   30   31      3
    31   0.13300  -0.33000   8.54500   0.04929   90.00000   0.00000   0.00250    30   31   32      3
    32   0.13300  -0.33000   8.59429   0.04929   90.00000   0.00000   0.00250    31   32   33      3
    33   0.13300  -0.33000   8.64359   0.04929   90.00000   0.00000   0.00250    32   33   34      3
    34   0.13300  -0.33000   8.69288   0.04929   90.00000   0.00000   0.00250    33   34   35      3
    35   0.13300  -0.33000   8.74218   0.04929   90.00000   0.00000   0.00250    34   35   36      3
    36   0.13300  -0.33000   8.79147   0.04929   90.00000   0.00000   0.00250    35   36   37      3
    37   0.13300  -0.33000   8.84076   0.04929   90.00000   0.00000   0.00250    36   37   38      3
    38   0.13300  -0.33000   8.89006   0.04929   90.00000   0.00000   0.00250    37   38   39      3
    39   0.13300  -0.33000   8.93935   0.04929   90.00000   0.00000   0.00250    38   39  -47      3
    40  -0.11083  -0.33000   8.12600   0.04433    0.00000   0.00000   0.00250    -6   40   41      3
    41  -0.06650  -0.33000   8.12600   0.04433    0.00000   0.00000   0.00250    40   41   42      3
    42  -0.02217  -0.33000   8.12600   0.04433    0.00000   0.00000   0.00250    41   42   43      3
    43   0.02217  -0.33000   8.12600   0.04433    0.00000   0.00000   0.00250    42   43   44      3
    44   0.06650  -0.33000   8.12600   0.04433    0.00000   0.00000   0.00250    43   44   45      3
    45   0.11083  -0.33000   8.12600   0.04433    0.00000   0.00000   0.00250    44   45   23      3
    46  -0.06650  -0.33000   8.96400   0.13300    0.00000   0.00000   0.00250    22   46   47      3
    47   0.06650  -0.33000   8.96400   0.13300    0.00000   0.00000   0.00250    66   47  -39      3
    48  -0.13600   0.00000   8.06000   0.12000   90.00000   0.00000   0.00250   -50   48   57      2
    49   0.13600   0.00000   8.06000   0.12000   90.00000   0.00000   0.00250    55   49   58      2
    50  -0.11333   0.00000   8.00000   0.04533    0.00000   0.00000   0.00250   -48   50   51      2
    51  -0.06800   0.00000   8.00000   0.04533    0.00000   0.00000   0.00250    50   51   52      2
    52  -0.02267   0.00000   8.00000   0.04533    0.00000   0.00000   0.00250    51   52   53      2
    53   0.02267   0.00000   8.00000   0.04533    0.00000   0.00000   0.00250    52   53   54      2
    54   0.06800   0.00000   8.00000   0.04533    0.00000   0.00000   0.00250    53   54   55      2
    55   0.11333   0.00000   8.00000   0.04533    0.00000   0.00000   0.00250    54   55   49      2
    56  -0.06800   0.00000   8.97000   0.13600    0.00000   0.00000   0.00250    57   56   59      2
    57  -0.13600   0.00000   8.54500   0.85000   90.00000   0.00000   0.00250    -1   57   56      2
    58   0.13600   0.00000   8.54500   0.85000   90.00000   0.00000   0.00250     5   58  -59      2
    59   0.06800   0.00000   8.97000   0.13600    0.00000   0.00000   0.00250   -60   59  -58      2
    60   0.00000  -0.02357   8.96957   0.04715   -1.04163 -90.00000   0.00050    56   60   61      4
    61   0.00000  -0.07071   8.96871   0.04715   -1.04163 -90.00000   0.00050    60   61   62      4
    62   0.00000  -0.11786   8.96786   0.04715   -1.04163 -90.00000   0.00050    61   62   63      4
    63   0.00000  -0.16500   8.96700   0.04715   -1.04163 -90.00000   0.00050    62   63   64      4
    64   0.00000  -0.21214   8.96614   0.04715   -1.04163 -90.00000   0.00050    63   64   65      4
    65   0.00000  -0.25929   8.96529   0.04715   -1.04163 -90.00000   0.00050    64   65   66      4
    66   0.00000  -0.30643   8.96443   0.04715   -1.04163 -90.00000   0.00050    65   66  -46      4






 ***** DATA CARD NO.  1   GN   2     0     0     0  1.10000E+01  1.00000E-02  0.00000E+00  0.00000E+00  0.00000E+00  0.00000E+00
 ***** DATA CARD NO.  2   EK   0     0     0     0  0.00000E+00  0.00000E+00  0.00000E+00  0.00000E+00  0.00000E+00  0.00000E+00
 ***** DATA CARD NO.  3   LD   5     0     0     0  5.80000E+07  0.00000E+00  0.00000E+00  0.00000E+00  0.00000E+00  0.00000E+00
 ***** DATA CARD NO.  4   EX   0   999     1     0  1.00000E+00  0.00000E+00  0.00000E+00  0.00000E+00  0.00000E+00  0.00000E+00
 ***** DATA CARD NO.  5   FR   0     1     0     0  1.44200E+02  0.00000E+00  0.00000E+00  0.00000E+00  0.00000E+00  0.00000E+00
 ***** DATA CARD NO.  6   RP   0     1     1  1000  8.50000E+01  9.00000E+01  0.00000E+00  0.00000E+00  0.00000E+00  0.00000E+00




                                 - - - - - - FREQUENCY - - - - - -

                                    FREQUENCY= 1.4420E+02 MHZ
                                    WAVELENGTH= 2.0791E+00 METERS




                    APPROXIMATE INTEGRATION EMPLOYED FOR SEGMENTS MORE THAN   1.000 WAVELENGTHS APART

                    THE EXTENDED THIN WIRE KERNEL WILL BE USED



                               - - - STRUCTURE IMPEDANCE LOADING - - -


       LOCATION          RESISTANCE   INDUCTANCE  CAPACITANCE       IMPEDANCE (OHMS)     CONDUCTIVITY    TYPE
    ITAG FROM THRU          OHMS        HENRYS       FARADS        REAL      IMAGINARY    MHOS/METER

     ALL                                                                                 5.8000E+07     WIRE  



                                  - - - ANTENNA ENVIRONMENT - - -

                                        FINITE GROUND.  SOMMERFELD SOLUTION
                                        RELATIVE DIELECTRIC CONST.= 11.000
                                        CONDUCTIVITY= 1.000E-02 MHOS/METER
                                        COMPLEX DIELECTRIC CONSTANT= 1.10000E+01-1.24660E+00



                                - - - MATRIX TIMING - - -

                        FILL=    0.016 SEC.,  FACTOR=    0.000 SEC.



                                          - - - ANTENNA INPUT PARAMETERS - - -

   TAG   SEG.    VOLTAGE (VOLTS)         CURRENT (AMPS)         IMPEDANCE (OHMS)        ADMITTANCE (MHOS)      POWER
   NO.   NO.    REAL        IMAG.       REAL        IMAG.       REAL        IMAG.       REAL        IMAG.     (WATTS)
   999     3 1.00000E+00 0.00000E+00 1.81141E-02 2.47767E-03 5.41919E+01-7.41246E+00 1.81141E-02 2.47767E-03 9.05703E-03



                             - - - CURRENTS AND LOCATION - - -

                                 DISTANCES IN WAVELENGTHS


  SEG.  TAG    COORD. OF SEG. CENTER     SEG.            - - - CURRENT (AMPS) - - -
  NO.   NO.     X        Y        Z      LENGTH     REAL        IMAG.       MAG.        PHASE
     1    1  -0.0528   0.0000   3.9056  0.02525   1.7296E-02  1.7924E-03  1.7389E-02    5.916
     2    1  -0.0275   0.0000   3.9056  0.02525   1.7880E-02  2.1380E-03  1.8008E-02    6.819
     3  999  -0.0024   0.0000   3.9056  0.02501   1.8114E-02  2.4777E-03  1.8283E-02    7.789
     4    1   0.0239   0.0000   3.9056  0.02766   1.7944E-02  2.1203E-03  1.8069E-02    6.739
     5    1   0.0516   0.0000   3.9056  0.02766   1.7349E-02  1.7443E-03  1.7436E-02    5.741
     6    3  -0.0640  -0.1587   3.9204  0.02371   2.6208E-02 -1.0086E-02  2.8082E-02  -21.048
     7    3  -0.0640  -0.1587   3.9441  0.02371   2.4338E-02 -9.3632E-03  2.6077E-02  -21.042
     8    3  -0.0640  -0.1587   3.9678  0.02371   2.1951E-02 -8.4436E-03  2.3519E-02  -21.039
     9    3  -0.0640  -0.1587   3.9915  0.02371   1.9093E-02 -7.3441E-03  2.0456E-02  -21.040
    10    3  -0.0640  -0.1587   4.0152  0.02371   1.5821E-02 -6.0868E-03  1.6952E-02  -21.043
    11    3  -0.0640  -0.1587   4.0389  0.02371   1.2206E-02 -4.6984E-03  1.3079E-02  -21.052
    12    3  -0.0640  -0.1587   4.0626  0.02371   8.3264E-03 -3.2085E-03  8.9232E-03  -21.074
    13    3  -0.0640  -0.1587   4.0863  0.02371   4.2655E-03 -1.6494E-03  4.5733E-03  -21.140
    14    3  -0.0640  -0.1587   4.1100  0.02371   1.1256E-04 -5.4952E-05  1.2526E-04  -26.021
    15    3  -0.0640  -0.1587   4.1337  0.02371  -4.0414E-03  1.5400E-03  4.3249E-03  159.140
    16    3  -0.0640  -0.1587   4.1575  0.02371  -8.1052E-03  3.1009E-03  8.6781E-03  159.064
    17    3  -0.0640  -0.1587   4.1812  0.02371  -1.1990E-02  4.5937E-03  1.2840E-02  159.037
    18    3  -0.0640  -0.1587   4.2049  0.02371  -1.5611E-02  5.9862E-03  1.6719E-02  159.020
    19    3  -0.0640  -0.1587   4.2286  0.02371  -1.8889E-02  7.2487E-03  2.0232E-02  159.005
    20    3  -0.0640  -0.1587   4.2523  0.02371  -2.1754E-02  8.3548E-03  2.3304E-02  158.991
    21    3  -0.0640  -0.1587   4.2760  0.02371  -2.4148E-02  9.2820E-03  2.5871E-02  158.974
    22    3  -0.0640  -0.1587   4.2997  0.02371  -2.6025E-02  1.0014E-02  2.7885E-02  158.955
    23    3   0.0640  -0.1587   3.9204  0.02371  -2.6222E-02  1.0102E-02  2.8101E-02  158.930
    24    3   0.0640  -0.1587   3.9441  0.02371  -2.4356E-02  9.3843E-03  2.6102E-02  158.929
    25    3   0.0640  -0.1587   3.9678  0.02371  -2.1973E-02  8.4683E-03  2.3548E-02  158.923
    26    3   0.0640  -0.1587   3.9915  0.02371  -1.9117E-02  7.3715E-03  2.0489E-02  158.913
    27    3   0.0640  -0.1587   4.0152  0.02371  -1.5848E-02  6.1161E-03  1.6987E-02  158.897
    28    3   0.0640  -0.1587   4.0389  0.02371  -1.2235E-02  4.7286E-03  1.3117E-02  158.870
    29    3   0.0640  -0.1587   4.0626  0.02371  -8.3563E-03  3.2386E-03  8.9619E-03  158.815
    30    3   0.0640  -0.1587   4.0863  0.02371  -4.2960E-03  1.6785E-03  4.6123E-03  158.659
    31    3   0.0640  -0.1587   4.1100  0.02371  -1.4310E-04  8.2154E-05  1.6500E-04  150.139
    32    3   0.0640  -0.1587   4.1337  0.02371   4.0115E-03 -1.5156E-03  4.2882E-03  -20.697
    33    3   0.0640  -0.1587   4.1575  0.02371   8.0765E-03 -3.0799E-03  8.6438E-03  -20.874
    34    3   0.0640  -0.1587   4.1812  0.02371   1.1963E-02 -4.5769E-03  1.2809E-02  -20.937
    35    3   0.0640  -0.1587   4.2049  0.02371   1.5586E-02 -5.9742E-03  1.6692E-02  -20.972
    36    3   0.0640  -0.1587   4.2286  0.02371   1.8867E-02 -7.2420E-03  2.0209E-02  -20.999
    37    3   0.0640  -0.1587   4.2523  0.02371   2.1735E-02 -8.3536E-03  2.3285E-02  -21.023
    38    3   0.0640  -0.1587   4.2760  0.02371   2.4133E-02 -9.2867E-03  2.5858E-02  -21.048
    39    3   0.0640  -0.1587   4.2997  0.02371   2.6013E-02 -1.0024E-02  2.7877E-02  -21.074
    40    3  -0.0533  -0.1587   3.9085  0.02132  -2.7490E-02  1.0584E-02  2.9457E-02  158.943
    41    3  -0.0320  -0.1587   3.9085  0.02132  -2.8309E-02  1.0900E-02  3.0335E-02  158.941
    42    3  -0.0107  -0.1587   3.9085  0.02132  -2.8726E-02  1.1062E-02  3.0782E-02  158.940
    43    3   0.0107  -0.1587   3.9085  0.02132  -2.8728E-02  1.1064E-02  3.0785E-02  158.937
    44    3   0.0320  -0.1587   3.9085  0.02132  -2.8315E-02  1.0908E-02  3.0343E-02  158.932
    45    3   0.0533  -0.1587   3.9085  0.02132  -2.7500E-02  1.0596E-02  2.9471E-02  158.928
    46    3  -0.0320  -0.1587   4.3116  0.06397  -2.8119E-02  1.0839E-02  3.0136E-02  158.919
    47    3   0.0320  -0.1587   4.3116  0.06397  -2.8114E-02  1.0860E-02  3.0139E-02  158.878
    48    2  -0.0654   0.0000   3.8768  0.05772  -6.0033E-03 -3.2526E-03  6.8279E-03 -151.551
    49    2   0.0654   0.0000   3.8768  0.05772   5.9914E-03  3.2556E-03  6.8187E-03   28.519
    50    2  -0.0545   0.0000   3.8479  0.02180   6.9472E-03  3.5005E-03  7.7793E-03   26.742
    51    2  -0.0327   0.0000   3.8479  0.02180   7.2740E-03  3.5799E-03  8.1072E-03   26.204
    52    2  -0.0109   0.0000   3.8479  0.02180   7.4356E-03  3.6185E-03  8.2693E-03   25.949
    53    2   0.0109   0.0000   3.8479  0.02180   7.4341E-03  3.6196E-03  8.2685E-03   25.961
    54    2   0.0327   0.0000   3.8479  0.02180   7.2695E-03  3.5828E-03  8.1045E-03   26.236
    55    2   0.0545   0.0000   3.8479  0.02180   6.9400E-03  3.5040E-03  7.7744E-03   26.789
    56    2  -0.0327   0.0000   4.3145  0.06541   2.2683E-02  4.8961E-03  2.3206E-02   12.180
    57    2  -0.0654   0.0000   4.1100  0.40884  -1.5635E-03  1.0320E-04  1.5669E-03  176.224
    58    2   0.0654   0.0000   4.1100  0.40884   1.5417E-03 -1.3014E-04  1.5472E-03   -4.825
    59    2   0.0327   0.0000   4.3145  0.06541   2.2697E-02  4.8684E-03  2.3214E-02   12.106
    60    4   0.0000  -0.0113   4.3143  0.02268  -1.0022E-05  3.1445E-05  3.3004E-05  107.677
    61    4   0.0000  -0.0340   4.3138  0.02268  -8.6678E-06  3.1894E-05  3.3051E-05  105.204
    62    4   0.0000  -0.0567   4.3134  0.02268  -7.1048E-06  3.1933E-05  3.2714E-05  102.544
    63    4   0.0000  -0.0794   4.3130  0.02268  -5.4288E-06  3.1532E-05  3.1996E-05   99.769
    64    4   0.0000  -0.1020   4.3126  0.02268  -3.7031E-06  3.0706E-05  3.0929E-05   96.877
    65    4   0.0000  -0.1247   4.3122  0.02268  -1.9941E-06  2.9491E-05  2.9558E-05   93.868
    66    4   0.0000  -0.1474   4.3118  0.02268  -4.1518E-07  2.7995E-05  2.7998E-05   90.850



                                        - - - POWER BUDGET - - -

                                           INPUT POWER   = 9.0570E-03 WATTS
                                           RADIATED POWER= 8.9238E-03 WATTS
                                           STRUCTURE LOSS= 1.3324E-04 WATTS
